
T01A0 000:270 SEGGER J-Link V5.12a Log File (0001ms, 0261ms total)
T01A0 000:270 DLL Compiled: Apr 12 2016 17:39:55 (0001ms, 0261ms total)
T01A0 000:270 Logging started @ 2016-05-08 14:40 (0001ms, 0261ms total)
T01A0 000:271 JLINK_SetWarnOutHandler(...) (0000ms, 0261ms total)
T01A0 000:271 JLINK_OpenEx(...)
Firmware: J-Link ARM V8 compiled Nov 28 2014 13:44:46
Hardware: V8.00
Feature(s): RDI,FlashDL,FlashBP,JFlash,GDBFULL  returns O.K. (0262ms, 0523ms total)
T01A0 000:533 JLINK_SetErrorOutHandler(...) (0000ms, 0523ms total)
T01A0 000:533 JLINK_ExecCommand("ProjectFile = "G:\Geek\Projects\Zulolo_F\Up\Code\ZuloloF_Brain\Brain\MDK-ARM\JLinkSettings.ini"", ...)  returns 0x00 (0000ms, 0523ms total)
T01A0 000:533 JLINK_ExecCommand("Device = STM32F407VETx", ...)Device "STM32F407VE" selected.  returns 0x00 (0001ms, 0524ms total)
T01A0 000:534 JLINK_ExecCommand("DisableConnectionTimeout", ...)  returns 0x01 (0000ms, 0524ms total)
T01A0 000:534 JLINK_GetHardwareVersion()  returns 0x13880 (0000ms, 0524ms total)
T01A0 000:534 JLINK_GetDLLVersion()  returns 51201 (0000ms, 0524ms total)
T01A0 000:534 JLINK_GetFirmwareString(...) (0000ms, 0524ms total)
T01A0 000:534 JLINK_GetDLLVersion()  returns 51201 (0000ms, 0524ms total)
T01A0 000:534 JLINK_GetCompileDateTime() (0000ms, 0524ms total)
T01A0 000:534 JLINK_GetFirmwareString(...) (0000ms, 0524ms total)
T01A0 000:534 JLINK_GetHardwareVersion()  returns 0x13880 (0000ms, 0524ms total)
T01A0 000:535 JLINK_TIF_Select(JLINKARM_TIF_SWD)  returns 0x00 (0000ms, 0524ms total)
T01A0 000:535 JLINK_SetSpeed(5000) (0000ms, 0524ms total)
T01A0 000:535 JLINK_GetId() >0x108 TIF>Found SWD-DP with ID 0x2BA01477 >0x0D TIF> >0x28 TIF> >0x0D TIF> >0x28 TIF> >0x0D TIF> >0x28 TIF> >0x0D TIF> >0x28 TIF> >0x0D TIF> >0x21 TIF> >0x0D TIF> >0x28 TIF> >0x0D TIF> >0x28 TIF> >0x0D TIF> >0x28 TIF> >0x0D TIF> >0x21 TIF> >0x0D TIF> >0x21 TIF> >0x0D TIF> >0x28 TIF> >0x0D TIF> >0x21 TIF> >0x0D TIF> >0x21 TIF> >0x0D TIF> >0x28 TIF> >0x0D TIF> >0x21 TIF> >0x0D TIF> >0x21 TIF> >0x0D TIF> >0x28 TIF> >0x0D TIF> >0x21 TIF> >0x0D TIF> >0x21 TIF> >0x0D TIF>
 >0x28 TIF> >0x0D TIF> >0x21 TIF> >0x0D TIF> >0x21 TIF> >0x0D TIF> >0x28 TIF> >0x0D TIF> >0x21 TIF> >0x0D TIF> >0x21 TIF> >0x108 TIF>Found SWD-DP with ID 0x2BA01477 >0x0D TIF> >0x28 TIF> >0x0D TIF> >0x28 TIF> >0x0D TIF> >0x28 TIF> >0x0D TIF> >0x28 TIF> >0x0D TIF> >0x21 TIF> >0x0D TIF> >0x28 TIF> >0x0D TIF> >0x28 TIF> >0x0D TIF> >0x21 TIF> >0x0D TIF> >0x21 TIF> >0x0D TIF> >0x21 TIF> >0x0D TIF> >0x28 TIF> >0x0D TIF> >0x28 TIF> >0x0D TIF> >0x28 TIF> >0x0D TIF> >0x21 TIF> >0x0D TIF> >0x21 TIF> >0x0D TIF>
 >0x28 TIF> >0x0D TIF> >0x21 TIF> >0x0D TIF> >0x21 TIF>Found Cortex-M4 r0p1, Little endian. -- CPU_ReadMem(4 bytes @ 0xE000EDF0) -- CPU_ReadMem(4 bytes @ 0xE0002000)FPUnit: 6 code (BP) slots and 2 literal slots -- CPU_ReadMem(4 bytes @ 0xE000EDFC) -- CPU_ReadMem(4 bytes @ 0xE0001000) -- CPU_WriteMem(4 bytes @ 0xE0001000) -- CPU_ReadMem(4 bytes @ 0xE000ED88) -- CPU_WriteMem(4 bytes @ 0xE000ED88) -- CPU_ReadMem(4 bytes @ 0xE000ED88) -- CPU_WriteMem(4 bytes @ 0xE000ED88)CoreSight components:
ROMTbl 0 @ E00FF000 -- CPU_ReadMem(16 bytes @ 0xE00FF000) -- CPU_ReadMem(16 bytes @ 0xE000EFF0) -- CPU_ReadMem(16 bytes @ 0xE000EFE0)ROMTbl 0 [0]: FFF0F000, CID: B105E00D, PID: 000BB00C SCS -- CPU_ReadMem(16 bytes @ 0xE0001FF0) -- CPU_ReadMem(16 bytes @ 0xE0001FE0)ROMTbl 0 [1]: FFF02000, CID: B105E00D, PID: 003BB002 DWT -- CPU_ReadMem(16 bytes @ 0xE0002FF0) -- CPU_ReadMem(16 bytes @ 0xE0002FE0)ROMTbl 0 [2]: FFF03000, CID: B105E00D, PID: 002BB003 FPB -- CPU_ReadMem(16 bytes @ 0xE0000FF0)
 -- CPU_ReadMem(16 bytes @ 0xE0000FE0)ROMTbl 0 [3]: FFF01000, CID: B105E00D, PID: 003BB001 ITM -- CPU_ReadMem(16 bytes @ 0xE00FF010) -- CPU_ReadMem(16 bytes @ 0xE0040FF0) -- CPU_ReadMem(16 bytes @ 0xE0040FE0)ROMTbl 0 [4]: FFF41000, CID: B105900D, PID: 000BB9A1 TPIU -- CPU_ReadMem(16 bytes @ 0xE0041FF0) -- CPU_ReadMem(16 bytes @ 0xE0041FE0)ROMTbl 0 [5]: FFF42000, CID: B105900D, PID: 000BB925 ETM >0x0D TIF> >0x21 TIF>  returns 0x2BA01477 (0030ms, 0554ms total)
T01A0 000:565 JLINK_GetDLLVersion()  returns 51201 (0000ms, 0554ms total)
T01A0 000:565 JLINK_CORE_GetFound()  returns 0xE0000FF (0000ms, 0554ms total)
T01A0 000:565 JLINK_GetDebugInfo(0x100) -- Value=0xE00FF000  returns 0x00 (0000ms, 0554ms total)
T01A0 000:565 JLINK_GetDebugInfo(0x100) -- Value=0xE00FF000  returns 0x00 (0000ms, 0554ms total)
T01A0 000:565 JLINK_GetDebugInfo(0x101) -- Value=0xE0041000  returns 0x00 (0000ms, 0554ms total)
T01A0 000:566 JLINK_GetDebugInfo(0x102) -- Value=0x00000000  returns 0x00 (0000ms, 0555ms total)
T01A0 000:566 JLINK_GetDebugInfo(0x103) -- Value=0xE0040000  returns 0x00 (0000ms, 0555ms total)
T01A0 000:566 JLINK_GetDebugInfo(0x104) -- Value=0xE0000000  returns 0x00 (0000ms, 0555ms total)
T01A0 000:566 JLINK_GetDebugInfo(0x105) -- Value=0xE0001000  returns 0x00 (0000ms, 0555ms total)
T01A0 000:566 JLINK_GetDebugInfo(0x106) -- Value=0xE0002000  returns 0x00 (0000ms, 0555ms total)
T01A0 000:566 JLINK_GetDebugInfo(0x107) -- Value=0xE000E000  returns 0x00 (0000ms, 0555ms total)
T01A0 000:566 JLINK_GetDebugInfo(0x10C) -- Value=0xE000EDF0  returns 0x00 (0000ms, 0555ms total)
T01A0 000:566 JLINK_ReadMemU32(0xE000EF40, 0x0001 Items, ...) -- CPU is running -- CPU_ReadMem(4 bytes @ 0xE000EF40) - Data: 21 00 11 10  returns 0x01 (0000ms, 0555ms total)
T01A0 000:566 JLINK_ReadMemU32(0xE000EF44, 0x0001 Items, ...) -- CPU is running -- CPU_ReadMem(4 bytes @ 0xE000EF44) - Data: 11 00 00 11  returns 0x01 (0000ms, 0555ms total)
T01A0 000:566 JLINK_ReadMemU32(0xE000ED00, 0x0001 Items, ...) -- CPU is running -- CPU_ReadMem(4 bytes @ 0xE000ED00) - Data: 41 C2 0F 41  returns 0x01 (0001ms, 0556ms total)
T01A0 000:567 JLINK_SetResetType(JLINKARM_RESET_TYPE_NORMAL)  returns JLINKARM_RESET_TYPE_NORMAL (0000ms, 0556ms total)
T01A0 000:567 JLINK_Reset() -- CPU is running -- CPU_WriteMem(4 bytes @ 0xE000EDF0) -- CPU is running -- CPU_WriteMem(4 bytes @ 0xE000EDFC) >0x35 TIF> -- CPU is running -- CPU_WriteMem(4 bytes @ 0xE000ED0C) -- CPU is running -- CPU_ReadMem(4 bytes @ 0xE000EDF0) -- CPU is running -- CPU_ReadMem(4 bytes @ 0xE000EDF0) -- CPU is running -- CPU_WriteMem(4 bytes @ 0xE000EDF0) -- CPU is running -- CPU_WriteMem(4 bytes @ 0xE000EDFC) -- CPU is running -- CPU_ReadMem(4 bytes @ 0xE000EDF0)
 -- CPU_WriteMem(4 bytes @ 0xE0002000) -- CPU_ReadMem(4 bytes @ 0xE000EDFC) -- CPU_ReadMem(4 bytes @ 0xE0001000) (0016ms, 0572ms total)
T01A0 000:583 JLINK_ReadReg(R15 (PC))  returns 0x08000258 (0000ms, 0572ms total)
T01A0 000:583 JLINK_ReadReg(XPSR)  returns 0x01000000 (0000ms, 0572ms total)
T01A0 000:583 JLINK_Halt()  returns 0x00 (0000ms, 0572ms total)
T01A0 000:583 JLINK_IsHalted()  returns TRUE (0000ms, 0572ms total)
T01A0 000:583 JLINK_ReadMemU32(0xE000EDF0, 0x0001 Items, ...) -- CPU_ReadMem(4 bytes @ 0xE000EDF0) - Data: 03 00 03 00  returns 0x01 (0000ms, 0572ms total)
T01A0 000:583 JLINK_WriteU32(0xE000EDF0, 0xA05F0003) -- CPU_WriteMem(4 bytes @ 0xE000EDF0)  returns 0x00 (0001ms, 0573ms total)
T01A0 000:584 JLINK_WriteU32(0xE000EDFC, 0x01000000) -- CPU_WriteMem(4 bytes @ 0xE000EDFC)  returns 0x00 (0000ms, 0573ms total)
T01A0 000:584 JLINK_GetHWStatus(...)  returns 0x00 (0001ms, 0574ms total)
T01A0 000:585 JLINK_GetNumBPUnits(Type = 0xFFFFFF00)  returns 0x06 (0000ms, 0574ms total)
T01A0 000:585 JLINK_GetNumBPUnits(Type = 0xF0)  returns 0x2000 (0000ms, 0574ms total)
T01A0 000:585 JLINK_GetNumWPUnits()  returns 0x04 (0000ms, 0574ms total)
T01A0 000:585 JLINK_GetSpeed()  returns 0xFA0 (0000ms, 0574ms total)
T01A0 000:585 JLINK_ReadMemU32(0xE000E004, 0x0001 Items, ...) -- CPU_ReadMem(4 bytes @ 0xE000E004) - Data: 02 00 00 00  returns 0x01 (0000ms, 0574ms total)
T01A0 000:585 JLINK_ReadMemU32(0xE000E004, 0x0001 Items, ...) -- CPU_ReadMem(4 bytes @ 0xE000E004) - Data: 02 00 00 00  returns 0x01 (0001ms, 0575ms total)
T01A0 000:586 JLINK_WriteMem(0xE0001000, 0x001C Bytes, ...) - Data: 01 00 00 00 00 00 00 00 00 00 00 00 00 00 00 00 ... -- CPU_WriteMem(28 bytes @ 0xE0001000)  returns 0x1C (0001ms, 0576ms total)
T01A0 000:587 JLINK_ReadMem (0xE0001000, 0x001C Bytes, ...) -- CPU_ReadMem(28 bytes @ 0xE0001000) - Data: 01 00 00 40 00 00 00 00 00 00 00 00 00 00 00 00 ...  returns 0x00 (0000ms, 0576ms total)
T01A0 000:587 JLINK_ReadReg(R15 (PC))  returns 0x08000258 (0000ms, 0576ms total)
T01A0 000:587 JLINK_ReadReg(XPSR)  returns 0x01000000 (0000ms, 0576ms total)
T01A0 000:673 JLINK_SetResetType(JLINKARM_RESET_TYPE_NORMAL)  returns JLINKARM_RESET_TYPE_NORMAL (0000ms, 0576ms total)
T01A0 000:673 JLINK_Reset() -- CPU_WriteMem(4 bytes @ 0xE000EDF0) -- CPU_WriteMem(4 bytes @ 0xE000EDFC) >0x35 TIF> -- CPU_WriteMem(4 bytes @ 0xE000ED0C) -- CPU_ReadMem(4 bytes @ 0xE000EDF0) -- CPU_ReadMem(4 bytes @ 0xE000EDF0) -- CPU_WriteMem(4 bytes @ 0xE000EDF0) -- CPU_WriteMem(4 bytes @ 0xE000EDFC) -- CPU is running -- CPU_ReadMem(4 bytes @ 0xE000EDF0) -- CPU_WriteMem(4 bytes @ 0xE0002000) -- CPU_ReadMem(4 bytes @ 0xE000EDFC) -- CPU_ReadMem(4 bytes @ 0xE0001000) (0016ms, 0592ms total)
T01A0 000:689 JLINK_ReadReg(R15 (PC))  returns 0x08000258 (0000ms, 0592ms total)
T01A0 000:689 JLINK_ReadReg(XPSR)  returns 0x01000000 (0000ms, 0592ms total)
T01A0 000:839 JLINK_ReadMem (0x08000188, 0x003C Bytes, ...) -- CPU_ReadMem(128 bytes @ 0x08000180) -- Updating C cache (128 bytes @ 0x08000180) -- Read from C cache (60 bytes @ 0x08000188) - Data: DF F8 0C D0 00 F0 9A F8 00 48 00 47 1D 42 00 08 ...  returns 0x00 (0002ms, 0594ms total)
T01A0 000:841 JLINK_ReadMem (0x080001C4, 0x003C Bytes, ...) -- Read from C cache (60 bytes @ 0x080001C4) - Data: 08 88 62 B6 61 B6 BF F3 4F 8F BF F3 6F 8F 00 DF ...  returns 0x00 (0000ms, 0594ms total)
T01A0 000:841 JLINK_ReadMem (0x08000200, 0x003C Bytes, ...) -- CPU_ReadMem(64 bytes @ 0x08000200) -- Updating C cache (64 bytes @ 0x08000200) -- Read from C cache (60 bytes @ 0x08000200) - Data: 08 BF 20 ED 10 8A 20 E9 F0 4F 10 60 08 B4 4F F0 ...  returns 0x00 (0001ms, 0595ms total)
T01A0 000:842 JLINK_ReadMem (0x0800023C, 0x003C Bytes, ...) -- CPU_ReadMem(64 bytes @ 0x08000240) -- Updating C cache (64 bytes @ 0x08000240) -- Read from C cache (60 bytes @ 0x0800023C) - Data: 10 8A 80 F3 09 88 BF F3 6F 8F 70 47 00 BF 00 BF ...  returns 0x00 (0001ms, 0596ms total)
T2E08 012:497 JLINK_SetBPEx(Addr = 0x0800421C, Type = 0xFFFFFFF2)  returns 0x00000001 (0000ms, 0596ms total)
T2E08 012:497 JLINK_Go() -- CPU_WriteMem(4 bytes @ 0xE0002000) -- CPU_ReadMem(4 bytes @ 0xE0001000) -- CPU_WriteMem(4 bytes @ 0xE0002008) -- CPU_WriteMem(4 bytes @ 0xE000200C) -- CPU_WriteMem(4 bytes @ 0xE0002010) -- CPU_WriteMem(4 bytes @ 0xE0002014) -- CPU_WriteMem(4 bytes @ 0xE0002018) -- CPU_WriteMem(4 bytes @ 0xE000201C) -- CPU_WriteMem(4 bytes @ 0xE0001004) (0004ms, 0600ms total)
T2E08 012:602 JLINK_IsHalted()  returns TRUE (0002ms, 0602ms total)
T2E08 012:604 JLINK_Halt()  returns 0x00 (0000ms, 0600ms total)
T2E08 012:604 JLINK_IsHalted()  returns TRUE (0000ms, 0600ms total)
T2E08 012:604 JLINK_IsHalted()  returns TRUE (0000ms, 0600ms total)
T2E08 012:604 JLINK_IsHalted()  returns TRUE (0000ms, 0600ms total)
T2E08 012:604 JLINK_ReadReg(R15 (PC))  returns 0x0800421C (0000ms, 0600ms total)
T2E08 012:604 JLINK_ReadReg(XPSR)  returns 0x61000000 (0000ms, 0600ms total)
T2E08 012:604 JLINK_ClrBPEx(BPHandle = 0x00000001)  returns 0x00 (0000ms, 0600ms total)
T2E08 012:604 JLINK_ReadMemU32(0xE000ED30, 0x0001 Items, ...) -- CPU_ReadMem(4 bytes @ 0xE000ED30) - Data: 03 00 00 00  returns 0x01 (0000ms, 0600ms total)
T2E08 012:604 JLINK_ReadMemU32(0xE0001028, 0x0001 Items, ...) -- CPU_ReadMem(4 bytes @ 0xE0001028) - Data: 00 00 00 00  returns 0x01 (0001ms, 0601ms total)
T2E08 012:605 JLINK_ReadMemU32(0xE0001038, 0x0001 Items, ...) -- CPU_ReadMem(4 bytes @ 0xE0001038) - Data: 00 02 00 00  returns 0x01 (0000ms, 0601ms total)
T2E08 012:605 JLINK_ReadMemU32(0xE0001048, 0x0001 Items, ...) -- CPU_ReadMem(4 bytes @ 0xE0001048) - Data: 00 00 00 00  returns 0x01 (0000ms, 0601ms total)
T2E08 012:605 JLINK_ReadMemU32(0xE0001058, 0x0001 Items, ...) -- CPU_ReadMem(4 bytes @ 0xE0001058) - Data: 00 00 00 00  returns 0x01 (0001ms, 0602ms total)
T2E08 012:606 JLINK_ReadReg(R0)  returns 0x0800421D (0000ms, 0602ms total)
T2E08 012:606 JLINK_ReadReg(R1)  returns 0x20005740 (0000ms, 0602ms total)
T2E08 012:606 JLINK_ReadReg(R2)  returns 0x00000000 (0000ms, 0602ms total)
T2E08 012:606 JLINK_ReadReg(R3)  returns 0x0800418F (0000ms, 0602ms total)
T2E08 012:606 JLINK_ReadReg(R4)  returns 0x080053F8 (0000ms, 0602ms total)
T2E08 012:606 JLINK_ReadReg(R5)  returns 0x080053F8 (0000ms, 0602ms total)
T2E08 012:606 JLINK_ReadReg(R6)  returns 0x00000000 (0000ms, 0602ms total)
T2E08 012:606 JLINK_ReadReg(R7)  returns 0x00000000 (0000ms, 0602ms total)
T2E08 012:606 JLINK_ReadReg(R8)  returns 0x00000000 (0000ms, 0602ms total)
T2E08 012:606 JLINK_ReadReg(R9)  returns 0x00000000 (0000ms, 0602ms total)
T2E08 012:606 JLINK_ReadReg(R10)  returns 0x00000000 (0000ms, 0602ms total)
T2E08 012:606 JLINK_ReadReg(R11)  returns 0x00000000 (0000ms, 0602ms total)
T2E08 012:606 JLINK_ReadReg(R12)  returns 0x00000000 (0000ms, 0602ms total)
T2E08 012:606 JLINK_ReadReg(R13 (SP))  returns 0x20005740 (0000ms, 0602ms total)
T2E08 012:606 JLINK_ReadReg(R14)  returns 0x080002E1 (0000ms, 0602ms total)
T2E08 012:606 JLINK_ReadReg(R15 (PC))  returns 0x0800421C (0000ms, 0602ms total)
T2E08 012:606 JLINK_ReadReg(XPSR)  returns 0x61000000 (0000ms, 0602ms total)
T2E08 012:606 JLINK_ReadReg(MSP)  returns 0x20005740 (0000ms, 0602ms total)
T2E08 012:606 JLINK_ReadReg(PSP)  returns 0x00000000 (0000ms, 0602ms total)
T2E08 012:606 JLINK_ReadReg(CFBP)  returns 0x00000000 (0000ms, 0602ms total)
T2E08 012:606 JLINK_ReadReg(FPSCR)  returns 0x00000000 (0004ms, 0606ms total)
T2E08 012:610 JLINK_ReadReg(FPS0)  returns 0x00000000 (0000ms, 0606ms total)
T2E08 012:610 JLINK_ReadReg(FPS1)  returns 0x00000000 (0000ms, 0606ms total)
T2E08 012:610 JLINK_ReadReg(FPS2)  returns 0x00000000 (0000ms, 0606ms total)
T2E08 012:610 JLINK_ReadReg(FPS3)  returns 0x00000000 (0000ms, 0606ms total)
T2E08 012:610 JLINK_ReadReg(FPS4)  returns 0x00000000 (0000ms, 0606ms total)
T2E08 012:610 JLINK_ReadReg(FPS5)  returns 0x00000000 (0000ms, 0606ms total)
T2E08 012:610 JLINK_ReadReg(FPS6)  returns 0x00000000 (0000ms, 0606ms total)
T2E08 012:610 JLINK_ReadReg(FPS7)  returns 0x00000000 (0000ms, 0606ms total)
T2E08 012:610 JLINK_ReadReg(FPS8)  returns 0x00000000 (0000ms, 0606ms total)
T2E08 012:610 JLINK_ReadReg(FPS9)  returns 0x00000000 (0000ms, 0606ms total)
T2E08 012:610 JLINK_ReadReg(FPS10)  returns 0x00000000 (0000ms, 0606ms total)
T2E08 012:610 JLINK_ReadReg(FPS11)  returns 0x00000000 (0000ms, 0606ms total)
T2E08 012:610 JLINK_ReadReg(FPS12)  returns 0x00000000 (0000ms, 0606ms total)
T2E08 012:610 JLINK_ReadReg(FPS13)  returns 0x00000000 (0000ms, 0606ms total)
T2E08 012:610 JLINK_ReadReg(FPS14)  returns 0x00000000 (0000ms, 0606ms total)
T2E08 012:610 JLINK_ReadReg(FPS15)  returns 0x00000000 (0000ms, 0606ms total)
T2E08 012:610 JLINK_ReadReg(FPS16)  returns 0x00000000 (0000ms, 0606ms total)
T2E08 012:610 JLINK_ReadReg(FPS17)  returns 0x00000000 (0000ms, 0606ms total)
T2E08 012:610 JLINK_ReadReg(FPS18)  returns 0x00000000 (0000ms, 0606ms total)
T2E08 012:610 JLINK_ReadReg(FPS19)  returns 0x00000000 (0000ms, 0606ms total)
T2E08 012:610 JLINK_ReadReg(FPS20)  returns 0x00000000 (0000ms, 0606ms total)
T2E08 012:610 JLINK_ReadReg(FPS21)  returns 0x00000000 (0000ms, 0606ms total)
T2E08 012:610 JLINK_ReadReg(FPS22)  returns 0x00000000 (0000ms, 0606ms total)
T2E08 012:610 JLINK_ReadReg(FPS23)  returns 0x00000000 (0000ms, 0606ms total)
T2E08 012:610 JLINK_ReadReg(FPS24)  returns 0x00000000 (0000ms, 0606ms total)
T2E08 012:610 JLINK_ReadReg(FPS25)  returns 0x00000000 (0000ms, 0606ms total)
T2E08 012:610 JLINK_ReadReg(FPS26)  returns 0x00000000 (0000ms, 0606ms total)
T2E08 012:610 JLINK_ReadReg(FPS27)  returns 0x00000000 (0000ms, 0606ms total)
T2E08 012:610 JLINK_ReadReg(FPS28)  returns 0x00000000 (0000ms, 0606ms total)
T2E08 012:610 JLINK_ReadReg(FPS29)  returns 0x00000000 (0000ms, 0606ms total)
T2E08 012:610 JLINK_ReadReg(FPS30)  returns 0x00000000 (0000ms, 0606ms total)
T2E08 012:610 JLINK_ReadReg(FPS31)  returns 0x00000000 (0000ms, 0606ms total)
T01A0 012:613 JLINK_ReadMemU32(0xE0001004, 0x0001 Items, ...) -- CPU_ReadMem(4 bytes @ 0xE0001004) - Data: 5B 8E 00 00  returns 0x01 (0000ms, 0606ms total)
T01A0 012:616 JLINK_ReadMem (0x0800411C, 0x003C Bytes, ...) -- CPU_ReadMem(128 bytes @ 0x08004100) -- Updating C cache (128 bytes @ 0x08004100) -- Read from C cache (60 bytes @ 0x0800411C) - Data: 03 9D 6D B9 DB 1C 9B 08 00 EB 02 30 00 F5 80 50 ...  returns 0x00 (0002ms, 0608ms total)
T01A0 012:618 JLINK_ReadMem (0x08004158, 0x003C Bytes, ...) -- CPU_ReadMem(64 bytes @ 0x08004180) -- Updating C cache (64 bytes @ 0x08004180) -- Read from C cache (60 bytes @ 0x08004158) - Data: 01 20 70 47 00 20 70 47 04 48 01 21 01 70 01 78 ...  returns 0x00 (0001ms, 0609ms total)
T01A0 012:619 JLINK_ReadMem (0x08004194, 0x003C Bytes, ...) -- CPU_ReadMem(64 bytes @ 0x080041C0) -- Updating C cache (64 bytes @ 0x080041C0) -- Read from C cache (60 bytes @ 0x08004194) - Data: 12 1F 00 2A FB D1 70 47 09 4E 0A 4C 4F F4 7A 75 ...  returns 0x00 (0000ms, 0609ms total)
T01A0 012:619 JLINK_ReadMem (0x080041D0, 0x003C Bytes, ...) -- CPU_ReadMem(64 bytes @ 0x08004200) -- Updating C cache (64 bytes @ 0x08004200) -- Read from C cache (60 bytes @ 0x080041D0) - Data: 21 D0 11 4B 00 22 00 1F 19 68 03 E0 81 42 03 D8 ...  returns 0x00 (0001ms, 0610ms total)
T01A0 012:620 JLINK_ReadMem (0x0800420C, 0x003C Bytes, ...) -- CPU_ReadMem(64 bytes @ 0x08004240) -- Updating C cache (64 bytes @ 0x08004240) -- Read from C cache (60 bytes @ 0x0800420C) - Data: 0B 68 1A 44 02 60 49 68 41 60 10 BD 98 01 00 20 ...  returns 0x00 (0001ms, 0611ms total)
T2E08 044:213 JLINK_SetBPEx(Addr = 0x08002442, Type = 0xFFFFFFF2)  returns 0x00000002 (0000ms, 0611ms total)
T2E08 044:213 JLINK_Go() -- CPU_WriteMem(4 bytes @ 0xE0002000) -- CPU_ReadMem(4 bytes @ 0xE0001000) -- CPU_WriteMem(4 bytes @ 0xE0002008) (0002ms, 0613ms total)
T2E08 044:316 JLINK_IsHalted()  returns FALSE (0000ms, 0613ms total)
T2E08 044:417 JLINK_IsHalted()  returns FALSE (0000ms, 0613ms total)
T2E08 044:518 JLINK_IsHalted()  returns FALSE (0000ms, 0613ms total)
T2E08 044:619 JLINK_IsHalted()  returns FALSE (0000ms, 0613ms total)
T2E08 044:720 JLINK_IsHalted()  returns FALSE (0000ms, 0613ms total)
T2E08 044:821 JLINK_ReadMemU32(0xE0001004, 0x0001 Items, ...) -- CPU is running -- CPU_ReadMem(4 bytes @ 0xE0001004) - Data: 80 C9 33 05  returns 0x01 (0000ms, 0613ms total)
T2E08 044:821 JLINK_IsHalted()  returns FALSE (0000ms, 0613ms total)
T2E08 044:922 JLINK_IsHalted()  returns FALSE (0000ms, 0613ms total)
T2E08 045:023 JLINK_IsHalted()  returns FALSE (0000ms, 0613ms total)
T2E08 045:124 JLINK_IsHalted()  returns FALSE (0000ms, 0613ms total)
T2E08 045:225 JLINK_IsHalted()  returns FALSE (0000ms, 0613ms total)
T2E08 045:326 JLINK_IsHalted()  returns FALSE (0000ms, 0613ms total)
T2E08 045:428 JLINK_ReadMemU32(0xE0001004, 0x0001 Items, ...) -- CPU is running -- CPU_ReadMem(4 bytes @ 0xE0001004) - Data: 88 56 68 0A  returns 0x01 (0000ms, 0613ms total)
T2E08 045:428 JLINK_IsHalted()  returns FALSE (0000ms, 0613ms total)
T2E08 045:529 JLINK_IsHalted()  returns FALSE (0000ms, 0613ms total)
T2E08 045:630 JLINK_IsHalted()  returns FALSE (0000ms, 0613ms total)
T2E08 045:731 JLINK_IsHalted()  returns FALSE (0000ms, 0613ms total)
T2E08 045:832 JLINK_IsHalted()  returns FALSE (0000ms, 0613ms total)
T2E08 045:933 JLINK_IsHalted()  returns FALSE (0000ms, 0613ms total)
T2E08 046:034 JLINK_ReadMemU32(0xE0001004, 0x0001 Items, ...) -- CPU is running -- CPU_ReadMem(4 bytes @ 0xE0001004) - Data: 23 EA 9C 0F  returns 0x01 (0000ms, 0613ms total)
T2E08 046:034 JLINK_IsHalted()  returns FALSE (0000ms, 0613ms total)
T2E08 046:135 JLINK_IsHalted()  returns FALSE (0000ms, 0613ms total)
T2E08 046:236 JLINK_IsHalted()  returns FALSE (0000ms, 0613ms total)
T2E08 046:337 JLINK_IsHalted()  returns FALSE (0000ms, 0613ms total)
T2E08 046:438 JLINK_IsHalted()  returns FALSE (0000ms, 0613ms total)
T2E08 046:539 JLINK_ReadMemU32(0xE0001004, 0x0001 Items, ...) -- CPU is running -- CPU_ReadMem(4 bytes @ 0xE0001004) - Data: 6C 77 F3 13  returns 0x01 (0000ms, 0613ms total)
T2E08 046:539 JLINK_IsHalted()  returns FALSE (0000ms, 0613ms total)
T2E08 046:640 JLINK_IsHalted()  returns FALSE (0000ms, 0613ms total)
T2E08 046:741 JLINK_IsHalted()  returns FALSE (0000ms, 0613ms total)
T2E08 046:843 JLINK_IsHalted()  returns FALSE (0000ms, 0613ms total)
T2E08 046:944 JLINK_IsHalted()  returns FALSE (0000ms, 0613ms total)
T2E08 047:045 JLINK_IsHalted()  returns FALSE (0000ms, 0613ms total)
T2E08 047:146 JLINK_ReadMemU32(0xE0001004, 0x0001 Items, ...) -- CPU is running -- CPU_ReadMem(4 bytes @ 0xE0001004) - Data: A4 0E 28 19  returns 0x01 (0000ms, 0613ms total)
T2E08 047:146 JLINK_IsHalted()  returns FALSE (0000ms, 0613ms total)
T2E08 047:247 JLINK_IsHalted()  returns FALSE (0000ms, 0613ms total)
T2E08 047:348 JLINK_IsHalted()  returns FALSE (0000ms, 0613ms total)
T2E08 047:449 JLINK_IsHalted()  returns FALSE (0000ms, 0613ms total)
T2E08 047:550 JLINK_IsHalted()  returns FALSE (0000ms, 0613ms total)
T2E08 047:651 JLINK_IsHalted()  returns FALSE (0000ms, 0613ms total)
T2E08 047:752 JLINK_ReadMemU32(0xE0001004, 0x0001 Items, ...) -- CPU is running -- CPU_ReadMem(4 bytes @ 0xE0001004) - Data: 74 7A 5C 1E  returns 0x01 (0000ms, 0613ms total)
T2E08 047:752 JLINK_IsHalted()  returns FALSE (0000ms, 0613ms total)
T2E08 047:853 JLINK_IsHalted()  returns FALSE (0000ms, 0613ms total)
T2E08 047:954 JLINK_IsHalted()  returns FALSE (0000ms, 0613ms total)
T2E08 048:055 JLINK_IsHalted()  returns FALSE (0000ms, 0613ms total)
T2E08 048:156 JLINK_IsHalted()  returns FALSE (0000ms, 0613ms total)
T2E08 048:258 JLINK_ReadMemU32(0xE0001004, 0x0001 Items, ...) -- CPU is running -- CPU_ReadMem(4 bytes @ 0xE0001004) - Data: A9 0A B3 22  returns 0x01 (0000ms, 0613ms total)
T2E08 048:258 JLINK_IsHalted()  returns FALSE (0000ms, 0613ms total)
T2E08 048:359 JLINK_IsHalted()  returns FALSE (0000ms, 0613ms total)
T2E08 048:460 JLINK_IsHalted()  returns FALSE (0000ms, 0613ms total)
T2E08 048:561 JLINK_IsHalted()  returns FALSE (0000ms, 0613ms total)
T2E08 048:662 JLINK_IsHalted()  returns FALSE (0000ms, 0613ms total)
T2E08 048:763 JLINK_IsHalted()  returns FALSE (0000ms, 0613ms total)
T2E08 048:864 JLINK_ReadMemU32(0xE0001004, 0x0001 Items, ...) -- CPU is running -- CPU_ReadMem(4 bytes @ 0xE0001004) - Data: 8B 87 E7 27  returns 0x01 (0000ms, 0613ms total)
T2E08 048:864 JLINK_IsHalted()  returns FALSE (0000ms, 0613ms total)
T2E08 048:965 JLINK_IsHalted()  returns FALSE (0000ms, 0613ms total)
T2E08 049:066 JLINK_IsHalted()  returns FALSE (0000ms, 0613ms total)
T2E08 049:167 JLINK_IsHalted()  returns FALSE (0000ms, 0613ms total)
T2E08 049:268 JLINK_IsHalted()  returns FALSE (0000ms, 0613ms total)
T2E08 049:369 JLINK_IsHalted()  returns FALSE (0000ms, 0613ms total)
T2E08 049:470 JLINK_ReadMemU32(0xE0001004, 0x0001 Items, ...) -- CPU is running -- CPU_ReadMem(4 bytes @ 0xE0001004) - Data: E3 15 1C 2D  returns 0x01 (0000ms, 0613ms total)
T2E08 049:470 JLINK_IsHalted()  returns FALSE (0000ms, 0613ms total)
T2E08 049:571 JLINK_IsHalted()  returns FALSE (0000ms, 0613ms total)
T2E08 049:673 JLINK_IsHalted()  returns FALSE (0000ms, 0613ms total)
T2E08 049:774 JLINK_IsHalted()  returns FALSE (0000ms, 0613ms total)
T2E08 049:875 JLINK_IsHalted()  returns FALSE (0000ms, 0613ms total)
T2E08 049:976 JLINK_ReadMemU32(0xE0001004, 0x0001 Items, ...) -- CPU is running -- CPU_ReadMem(4 bytes @ 0xE0001004) - Data: 9A AE 72 31  returns 0x01 (0000ms, 0613ms total)
T2E08 049:977 JLINK_IsHalted()  returns FALSE (0000ms, 0613ms total)
T2E08 050:078 JLINK_IsHalted()  returns FALSE (0000ms, 0613ms total)
T2E08 050:179 JLINK_IsHalted()  returns FALSE (0000ms, 0613ms total)
T2E08 050:280 JLINK_IsHalted()  returns FALSE (0000ms, 0613ms total)
T2E08 050:381 JLINK_IsHalted()  returns FALSE (0000ms, 0613ms total)
T2E08 050:482 JLINK_IsHalted()  returns FALSE (0000ms, 0613ms total)
T2E08 050:583 JLINK_ReadMemU32(0xE0001004, 0x0001 Items, ...) -- CPU is running -- CPU_ReadMem(4 bytes @ 0xE0001004) - Data: 47 5C A9 36  returns 0x01 (0000ms, 0613ms total)
T2E08 050:583 JLINK_IsHalted()  returns FALSE (0000ms, 0613ms total)
T2E08 050:684 JLINK_IsHalted()  returns FALSE (0000ms, 0613ms total)
T2E08 050:785 JLINK_IsHalted()  returns FALSE (0000ms, 0613ms total)
T2E08 050:886 JLINK_IsHalted()  returns FALSE (0000ms, 0613ms total)
T2E08 050:988 JLINK_IsHalted()  returns FALSE (0000ms, 0613ms total)
T2E08 051:089 JLINK_IsHalted()  returns FALSE (0000ms, 0613ms total)
T2E08 051:190 JLINK_ReadMemU32(0xE0001004, 0x0001 Items, ...) -- CPU is running -- CPU_ReadMem(4 bytes @ 0xE0001004) - Data: 1D EB DD 3B  returns 0x01 (0000ms, 0613ms total)
T2E08 051:190 JLINK_IsHalted()  returns FALSE (0000ms, 0613ms total)
T2E08 051:291 JLINK_IsHalted()  returns FALSE (0000ms, 0613ms total)
T2E08 051:392 JLINK_IsHalted()  returns FALSE (0000ms, 0613ms total)
T2E08 051:493 JLINK_IsHalted()  returns FALSE (0000ms, 0613ms total)
T2E08 051:594 JLINK_IsHalted()  returns FALSE (0000ms, 0613ms total)
T2E08 051:695 JLINK_ReadMemU32(0xE0001004, 0x0001 Items, ...) -- CPU is running -- CPU_ReadMem(4 bytes @ 0xE0001004) - Data: 07 6D 34 40  returns 0x01 (0000ms, 0613ms total)
T2E08 051:695 JLINK_IsHalted()  returns FALSE (0000ms, 0613ms total)
T2E08 051:796 JLINK_IsHalted()  returns FALSE (0000ms, 0613ms total)
T2E08 051:897 JLINK_IsHalted()  returns FALSE (0000ms, 0613ms total)
T2E08 051:998 JLINK_IsHalted()  returns FALSE (0000ms, 0613ms total)
T2E08 052:099 JLINK_IsHalted()  returns FALSE (0000ms, 0613ms total)
T2E08 052:200 JLINK_IsHalted()  returns FALSE (0000ms, 0613ms total)
T2E08 052:301 JLINK_ReadMemU32(0xE0001004, 0x0001 Items, ...) -- CPU is running -- CPU_ReadMem(4 bytes @ 0xE0001004) - Data: C7 F6 68 45  returns 0x01 (0000ms, 0613ms total)
T2E08 052:301 JLINK_IsHalted()  returns FALSE (0000ms, 0613ms total)
T2E08 052:403 JLINK_IsHalted()  returns FALSE (0000ms, 0613ms total)
T2E08 052:504 JLINK_IsHalted()  returns FALSE (0000ms, 0613ms total)
T2E08 052:605 JLINK_IsHalted()  returns FALSE (0000ms, 0613ms total)
T2E08 052:706 JLINK_IsHalted()  returns FALSE (0000ms, 0613ms total)
T2E08 052:807 JLINK_Halt()  returns 0x00 (0002ms, 0615ms total)
T2E08 052:809 JLINK_IsHalted()  returns TRUE (0000ms, 0615ms total)
T2E08 052:809 JLINK_IsHalted()  returns TRUE (0000ms, 0615ms total)
T2E08 052:809 JLINK_IsHalted()  returns TRUE (0000ms, 0615ms total)
T2E08 052:809 JLINK_ReadReg(R15 (PC))  returns 0x080043BC (0000ms, 0615ms total)
T2E08 052:809 JLINK_ReadReg(XPSR)  returns 0x61000000 (0000ms, 0615ms total)
T2E08 052:809 JLINK_ClrBPEx(BPHandle = 0x00000002)  returns 0x00 (0000ms, 0615ms total)
T2E08 052:809 JLINK_ReadMemU32(0xE000ED30, 0x0001 Items, ...) -- CPU_ReadMem(4 bytes @ 0xE000ED30) - Data: 01 00 00 00  returns 0x01 (0000ms, 0615ms total)
T2E08 052:809 JLINK_ReadMemU32(0xE0001028, 0x0001 Items, ...) -- CPU_ReadMem(4 bytes @ 0xE0001028) - Data: 00 00 00 00  returns 0x01 (0001ms, 0616ms total)
T2E08 052:810 JLINK_ReadMemU32(0xE0001038, 0x0001 Items, ...) -- CPU_ReadMem(4 bytes @ 0xE0001038) - Data: 00 02 00 00  returns 0x01 (0000ms, 0616ms total)
T2E08 052:810 JLINK_ReadMemU32(0xE0001048, 0x0001 Items, ...) -- CPU_ReadMem(4 bytes @ 0xE0001048) - Data: 00 00 00 00  returns 0x01 (0000ms, 0616ms total)
T2E08 052:810 JLINK_ReadMemU32(0xE0001058, 0x0001 Items, ...) -- CPU_ReadMem(4 bytes @ 0xE0001058) - Data: 00 00 00 00  returns 0x01 (0001ms, 0617ms total)
T2E08 052:811 JLINK_ReadReg(R0)  returns 0x00000001 (0000ms, 0617ms total)
T2E08 052:811 JLINK_ReadReg(R1)  returns 0xA5A5A5A5 (0000ms, 0617ms total)
T2E08 052:811 JLINK_ReadReg(R2)  returns 0xA5A5A5A5 (0000ms, 0617ms total)
T2E08 052:811 JLINK_ReadReg(R3)  returns 0xA5A5A5A5 (0000ms, 0617ms total)
T2E08 052:811 JLINK_ReadReg(R4)  returns 0x20003DAC (0000ms, 0617ms total)
T2E08 052:811 JLINK_ReadReg(R5)  returns 0xE000ED04 (0000ms, 0617ms total)
T2E08 052:811 JLINK_ReadReg(R6)  returns 0x10000000 (0000ms, 0617ms total)
T2E08 052:811 JLINK_ReadReg(R7)  returns 0xA5A5A5A5 (0000ms, 0617ms total)
T2E08 052:811 JLINK_ReadReg(R8)  returns 0xA5A5A5A5 (0000ms, 0617ms total)
T2E08 052:811 JLINK_ReadReg(R9)  returns 0xA5A5A5A5 (0000ms, 0617ms total)
T2E08 052:811 JLINK_ReadReg(R10)  returns 0xA5A5A5A5 (0000ms, 0617ms total)
T2E08 052:811 JLINK_ReadReg(R11)  returns 0xA5A5A5A5 (0000ms, 0617ms total)
T2E08 052:811 JLINK_ReadReg(R12)  returns 0xA5A5A5A5 (0000ms, 0617ms total)
T2E08 052:811 JLINK_ReadReg(R13 (SP))  returns 0x20001360 (0000ms, 0617ms total)
T2E08 052:811 JLINK_ReadReg(R14)  returns 0x08004491 (0000ms, 0617ms total)
T2E08 052:811 JLINK_ReadReg(R15 (PC))  returns 0x080043BC (0000ms, 0617ms total)
T2E08 052:811 JLINK_ReadReg(XPSR)  returns 0x61000000 (0000ms, 0617ms total)
T2E08 052:811 JLINK_ReadReg(MSP)  returns 0x20005720 (0000ms, 0617ms total)
T2E08 052:811 JLINK_ReadReg(PSP)  returns 0x20001360 (0000ms, 0617ms total)
T2E08 052:811 JLINK_ReadReg(CFBP)  returns 0x02000000 (0000ms, 0617ms total)
T2E08 052:811 JLINK_ReadReg(FPSCR)  returns 0x00000000 (0003ms, 0620ms total)
T2E08 052:814 JLINK_ReadReg(FPS0)  returns 0x00000000 (0000ms, 0620ms total)
T2E08 052:814 JLINK_ReadReg(FPS1)  returns 0x00000000 (0000ms, 0620ms total)
T2E08 052:814 JLINK_ReadReg(FPS2)  returns 0x00000000 (0000ms, 0620ms total)
T2E08 052:814 JLINK_ReadReg(FPS3)  returns 0x00000000 (0000ms, 0620ms total)
T2E08 052:814 JLINK_ReadReg(FPS4)  returns 0x00000000 (0000ms, 0620ms total)
T2E08 052:814 JLINK_ReadReg(FPS5)  returns 0x00000000 (0000ms, 0620ms total)
T2E08 052:814 JLINK_ReadReg(FPS6)  returns 0x00000000 (0000ms, 0620ms total)
T2E08 052:814 JLINK_ReadReg(FPS7)  returns 0x00000000 (0000ms, 0620ms total)
T2E08 052:814 JLINK_ReadReg(FPS8)  returns 0x00000000 (0000ms, 0620ms total)
T2E08 052:814 JLINK_ReadReg(FPS9)  returns 0x00000000 (0000ms, 0620ms total)
T2E08 052:814 JLINK_ReadReg(FPS10)  returns 0x00000000 (0000ms, 0620ms total)
T2E08 052:814 JLINK_ReadReg(FPS11)  returns 0x00000000 (0000ms, 0620ms total)
T2E08 052:814 JLINK_ReadReg(FPS12)  returns 0x00000000 (0000ms, 0620ms total)
T2E08 052:814 JLINK_ReadReg(FPS13)  returns 0x00000000 (0000ms, 0620ms total)
T2E08 052:815 JLINK_ReadReg(FPS14)  returns 0x00000000 (0000ms, 0620ms total)
T2E08 052:815 JLINK_ReadReg(FPS15)  returns 0x00000000 (0000ms, 0620ms total)
T2E08 052:815 JLINK_ReadReg(FPS16)  returns 0x00000000 (0000ms, 0620ms total)
T2E08 052:815 JLINK_ReadReg(FPS17)  returns 0x00000000 (0000ms, 0620ms total)
T2E08 052:815 JLINK_ReadReg(FPS18)  returns 0x00000000 (0000ms, 0620ms total)
T2E08 052:815 JLINK_ReadReg(FPS19)  returns 0x00000000 (0000ms, 0620ms total)
T2E08 052:815 JLINK_ReadReg(FPS20)  returns 0x00000000 (0000ms, 0620ms total)
T2E08 052:815 JLINK_ReadReg(FPS21)  returns 0x00000000 (0000ms, 0620ms total)
T2E08 052:815 JLINK_ReadReg(FPS22)  returns 0x00000000 (0000ms, 0620ms total)
T2E08 052:815 JLINK_ReadReg(FPS23)  returns 0x00000000 (0000ms, 0620ms total)
T2E08 052:815 JLINK_ReadReg(FPS24)  returns 0x00000000 (0000ms, 0620ms total)
T2E08 052:815 JLINK_ReadReg(FPS25)  returns 0x00000000 (0000ms, 0620ms total)
T2E08 052:815 JLINK_ReadReg(FPS26)  returns 0x00000000 (0000ms, 0620ms total)
T2E08 052:815 JLINK_ReadReg(FPS27)  returns 0x00000000 (0000ms, 0620ms total)
T2E08 052:815 JLINK_ReadReg(FPS28)  returns 0x00000000 (0000ms, 0620ms total)
T2E08 052:815 JLINK_ReadReg(FPS29)  returns 0x00000000 (0000ms, 0620ms total)
T2E08 052:815 JLINK_ReadReg(FPS30)  returns 0x00000000 (0000ms, 0620ms total)
T2E08 052:815 JLINK_ReadReg(FPS31)  returns 0x00000000 (0000ms, 0620ms total)
T01A0 052:827 JLINK_ReadMem (0x00000000, 0x0004 Bytes, ...) -- CPU_ReadMem(4 bytes @ 0x00000004) -- CPU_ReadMem(64 bytes @ 0x08000000) -- Updating C cache (64 bytes @ 0x08000000) -- Read from C cache (4 bytes @ 0x08000000) - Data: 40 57 00 20  returns 0x00 (0001ms, 0621ms total)
T01A0 052:831 JLINK_ReadMemU32(0xE0001004, 0x0001 Items, ...) -- CPU_ReadMem(4 bytes @ 0xE0001004) - Data: 09 54 BF 49  returns 0x01 (0000ms, 0621ms total)
T01A0 052:833 JLINK_ReadMem (0x080042BC, 0x003C Bytes, ...) -- CPU_ReadMem(128 bytes @ 0x08004280) -- Updating C cache (128 bytes @ 0x08004280) -- Read from C cache (60 bytes @ 0x080042BC) - Data: 15 4D 20 F0 07 01 00 24 14 4A 0F E0 03 68 8B 42 ...  returns 0x00 (0002ms, 0623ms total)
T01A0 052:835 JLINK_ReadMem (0x080042F8, 0x003C Bytes, ...) -- CPU_ReadMem(64 bytes @ 0x08004300) -- Updating C cache (64 bytes @ 0x08004300) -- Read from C cache (60 bytes @ 0x080042F8) - Data: 00 20 F0 BD 06 4A 07 48 10 60 07 4A 12 1A 22 F0 ...  returns 0x00 (0001ms, 0624ms total)
T01A0 052:836 JLINK_ReadMem (0x08004334, 0x003C Bytes, ...) -- CPU_ReadMem(64 bytes @ 0x08004340) -- Updating C cache (64 bytes @ 0x08004340) -- Read from C cache (60 bytes @ 0x08004334) - Data: 00 F0 62 FB 00 20 10 BD 10 B5 00 F0 FB FE 01 28 ...  returns 0x00 (0000ms, 0624ms total)
T01A0 052:836 JLINK_ReadMem (0x08004370, 0x003C Bytes, ...) -- CPU_ReadMem(64 bytes @ 0x08004380) -- Updating C cache (64 bytes @ 0x08004380) -- Read from C cache (60 bytes @ 0x08004370) - Data: 82 B2 D4 E9 00 10 00 F0 01 FE 01 28 02 D0 00 20 ...  returns 0x00 (0001ms, 0625ms total)
T01A0 052:837 JLINK_ReadMem (0x080043AC, 0x003C Bytes, ...) -- CPU_ReadMem(64 bytes @ 0x080043C0) -- Updating C cache (64 bytes @ 0x080043C0) -- Read from C cache (60 bytes @ 0x080043AC) - Data: A7 F9 A0 6A 85 42 00 D2 A5 62 70 BD E8 00 00 20 ...  returns 0x00 (0001ms, 0626ms total)
T01A0 052:897 JLINK_ReadMem (0x08002442, 0x0002 Bytes, ...) -- CPU_ReadMem(64 bytes @ 0x08002440) -- Updating C cache (64 bytes @ 0x08002440) -- Read from C cache (2 bytes @ 0x08002442) - Data: 48 09  returns 0x00 (0001ms, 0627ms total)
T01A0 052:898 JLINK_ReadMem (0x08002444, 0x003C Bytes, ...) -- Read from C cache (60 bytes @ 0x08002444) - Data: 02 49 08 60 70 47 00 00 24 3F 00 20 44 01 00 20 ...  returns 0x00 (0000ms, 0627ms total)
T01A0 053:548 JLINK_SetResetType(JLINKARM_RESET_TYPE_NORMAL)  returns JLINKARM_RESET_TYPE_NORMAL (0000ms, 0627ms total)
T01A0 053:548 JLINK_Reset() -- CPU_WriteMem(4 bytes @ 0xE000EDF0) -- CPU_WriteMem(4 bytes @ 0xE000EDFC) >0x35 TIF> -- CPU_WriteMem(4 bytes @ 0xE000ED0C) -- CPU_ReadMem(4 bytes @ 0xE000EDF0) -- CPU_ReadMem(4 bytes @ 0xE000EDF0) -- CPU_WriteMem(4 bytes @ 0xE000EDF0) -- CPU_WriteMem(4 bytes @ 0xE000EDFC) -- CPU is running -- CPU_ReadMem(4 bytes @ 0xE000EDF0) -- CPU_WriteMem(4 bytes @ 0xE0002000) -- CPU_ReadMem(4 bytes @ 0xE000EDFC) -- CPU_ReadMem(4 bytes @ 0xE0001000) (0017ms, 0644ms total)
T01A0 053:565 JLINK_ReadReg(R15 (PC))  returns 0x08000258 (0000ms, 0644ms total)
T01A0 053:565 JLINK_ReadReg(XPSR)  returns 0x01000000 (0000ms, 0644ms total)
T01A0 053:565 JLINK_ReadMemU32(0xE0001004, 0x0001 Items, ...) -- CPU_ReadMem(4 bytes @ 0xE0001004) - Data: 64 61 BF 49  returns 0x01 (0000ms, 0644ms total)
T01A0 053:567 JLINK_ReadMem (0x08000188, 0x003C Bytes, ...) -- CPU_ReadMem(128 bytes @ 0x08000180) -- Updating C cache (128 bytes @ 0x08000180) -- Read from C cache (60 bytes @ 0x08000188) - Data: DF F8 0C D0 00 F0 9A F8 00 48 00 47 1D 42 00 08 ...  returns 0x00 (0002ms, 0646ms total)
T01A0 053:569 JLINK_ReadMem (0x080001C4, 0x003C Bytes, ...) -- Read from C cache (60 bytes @ 0x080001C4) - Data: 08 88 62 B6 61 B6 BF F3 4F 8F BF F3 6F 8F 00 DF ...  returns 0x00 (0000ms, 0646ms total)
T01A0 053:569 JLINK_ReadMem (0x08000200, 0x003C Bytes, ...) -- CPU_ReadMem(64 bytes @ 0x08000200) -- Updating C cache (64 bytes @ 0x08000200) -- Read from C cache (60 bytes @ 0x08000200) - Data: 08 BF 20 ED 10 8A 20 E9 F0 4F 10 60 08 B4 4F F0 ...  returns 0x00 (0000ms, 0646ms total)
T01A0 053:569 JLINK_ReadMem (0x0800023E, 0x0002 Bytes, ...) -- Read from C cache (2 bytes @ 0x0800023E) - Data: 80 F3  returns 0x00 (0000ms, 0646ms total)
T01A0 053:569 JLINK_ReadMem (0x08000240, 0x003C Bytes, ...) -- CPU_ReadMem(64 bytes @ 0x08000240) -- Updating C cache (64 bytes @ 0x08000240) -- Read from C cache (60 bytes @ 0x08000240) - Data: 09 88 BF F3 6F 8F 70 47 00 BF 00 BF E8 00 00 20 ...  returns 0x00 (0001ms, 0647ms total)
T2E08 063:464 JLINK_SetBPEx(Addr = 0x08002442, Type = 0xFFFFFFF2)  returns 0x00000003 (0000ms, 0647ms total)
T2E08 063:464 JLINK_SetBPEx(Addr = 0x08004286, Type = 0xFFFFFFF2)  returns 0x00000004 (0000ms, 0647ms total)
T2E08 063:464 JLINK_Go() -- CPU_WriteMem(4 bytes @ 0xE0002000) -- CPU_WriteMem(4 bytes @ 0xE0002000) -- CPU_ReadMem(4 bytes @ 0xE0001000) -- CPU_WriteMem(4 bytes @ 0xE0002008) -- CPU_WriteMem(4 bytes @ 0xE000200C) -- CPU_WriteMem(4 bytes @ 0xE0002010) -- CPU_WriteMem(4 bytes @ 0xE0002014) -- CPU_WriteMem(4 bytes @ 0xE0002018) -- CPU_WriteMem(4 bytes @ 0xE000201C) -- CPU_WriteMem(4 bytes @ 0xE0001004) (0005ms, 0652ms total)
T2E08 063:570 JLINK_IsHalted()  returns TRUE (0002ms, 0654ms total)
T2E08 063:572 JLINK_Halt()  returns 0x00 (0000ms, 0652ms total)
T2E08 063:572 JLINK_IsHalted()  returns TRUE (0000ms, 0652ms total)
T2E08 063:572 JLINK_IsHalted()  returns TRUE (0000ms, 0652ms total)
T2E08 063:572 JLINK_IsHalted()  returns TRUE (0000ms, 0652ms total)
T2E08 063:572 JLINK_ReadReg(R15 (PC))  returns 0x08004286 (0000ms, 0652ms total)
T2E08 063:572 JLINK_ReadReg(XPSR)  returns 0x21000000 (0000ms, 0652ms total)
T2E08 063:572 JLINK_ClrBPEx(BPHandle = 0x00000003)  returns 0x00 (0000ms, 0652ms total)
T2E08 063:572 JLINK_ClrBPEx(BPHandle = 0x00000004)  returns 0x00 (0000ms, 0652ms total)
T2E08 063:572 JLINK_ReadMemU32(0xE000ED30, 0x0001 Items, ...) -- CPU_ReadMem(4 bytes @ 0xE000ED30) - Data: 03 00 00 00  returns 0x01 (0000ms, 0652ms total)
T2E08 063:572 JLINK_ReadMemU32(0xE0001028, 0x0001 Items, ...) -- CPU_ReadMem(4 bytes @ 0xE0001028) - Data: 00 00 00 00  returns 0x01 (0001ms, 0653ms total)
T2E08 063:573 JLINK_ReadMemU32(0xE0001038, 0x0001 Items, ...) -- CPU_ReadMem(4 bytes @ 0xE0001038) - Data: 00 02 00 00  returns 0x01 (0000ms, 0653ms total)
T2E08 063:573 JLINK_ReadMemU32(0xE0001048, 0x0001 Items, ...) -- CPU_ReadMem(4 bytes @ 0xE0001048) - Data: 00 00 00 00  returns 0x01 (0000ms, 0653ms total)
T2E08 063:573 JLINK_ReadMemU32(0xE0001058, 0x0001 Items, ...) -- CPU_ReadMem(4 bytes @ 0xE0001058) - Data: 00 00 00 00  returns 0x01 (0001ms, 0654ms total)
T2E08 063:574 JLINK_ReadReg(R0)  returns 0x200001B8 (0000ms, 0654ms total)
T2E08 063:574 JLINK_ReadReg(R1)  returns 0x20000190 (0000ms, 0654ms total)
T2E08 063:574 JLINK_ReadReg(R2)  returns 0xFFFFFFFF (0000ms, 0654ms total)
T2E08 063:574 JLINK_ReadReg(R3)  returns 0x00003B90 (0000ms, 0654ms total)
T2E08 063:574 JLINK_ReadReg(R4)  returns 0x080053F8 (0000ms, 0654ms total)
T2E08 063:574 JLINK_ReadReg(R5)  returns 0x080053F8 (0000ms, 0654ms total)
T2E08 063:574 JLINK_ReadReg(R6)  returns 0x00000000 (0000ms, 0654ms total)
T2E08 063:574 JLINK_ReadReg(R7)  returns 0x00000000 (0000ms, 0654ms total)
T2E08 063:574 JLINK_ReadReg(R8)  returns 0x00000000 (0000ms, 0654ms total)
T2E08 063:574 JLINK_ReadReg(R9)  returns 0x00000000 (0000ms, 0654ms total)
T2E08 063:574 JLINK_ReadReg(R10)  returns 0x00000000 (0000ms, 0654ms total)
T2E08 063:574 JLINK_ReadReg(R11)  returns 0x00000000 (0000ms, 0654ms total)
T2E08 063:574 JLINK_ReadReg(R12)  returns 0x000C0000 (0000ms, 0654ms total)
T2E08 063:574 JLINK_ReadReg(R13 (SP))  returns 0x20005740 (0000ms, 0654ms total)
T2E08 063:574 JLINK_ReadReg(R14)  returns 0x08004E3D (0000ms, 0654ms total)
T2E08 063:574 JLINK_ReadReg(R15 (PC))  returns 0x08004286 (0000ms, 0654ms total)
T2E08 063:574 JLINK_ReadReg(XPSR)  returns 0x21000000 (0000ms, 0654ms total)
T2E08 063:574 JLINK_ReadReg(MSP)  returns 0x20005740 (0000ms, 0654ms total)
T2E08 063:574 JLINK_ReadReg(PSP)  returns 0x00000000 (0000ms, 0654ms total)
T2E08 063:574 JLINK_ReadReg(CFBP)  returns 0x00005000 (0000ms, 0654ms total)
T2E08 063:574 JLINK_ReadReg(FPSCR)  returns 0x00000000 (0003ms, 0657ms total)
T2E08 063:577 JLINK_ReadReg(FPS0)  returns 0x00000000 (0000ms, 0657ms total)
T2E08 063:577 JLINK_ReadReg(FPS1)  returns 0x00000000 (0000ms, 0657ms total)
T2E08 063:577 JLINK_ReadReg(FPS2)  returns 0x00000000 (0000ms, 0657ms total)
T2E08 063:577 JLINK_ReadReg(FPS3)  returns 0x00000000 (0000ms, 0657ms total)
T2E08 063:577 JLINK_ReadReg(FPS4)  returns 0x00000000 (0000ms, 0657ms total)
T2E08 063:577 JLINK_ReadReg(FPS5)  returns 0x00000000 (0000ms, 0657ms total)
T2E08 063:577 JLINK_ReadReg(FPS6)  returns 0x00000000 (0000ms, 0657ms total)
T2E08 063:577 JLINK_ReadReg(FPS7)  returns 0x00000000 (0000ms, 0657ms total)
T2E08 063:577 JLINK_ReadReg(FPS8)  returns 0x00000000 (0000ms, 0657ms total)
T2E08 063:577 JLINK_ReadReg(FPS9)  returns 0x00000000 (0000ms, 0657ms total)
T2E08 063:577 JLINK_ReadReg(FPS10)  returns 0x00000000 (0000ms, 0657ms total)
T2E08 063:577 JLINK_ReadReg(FPS11)  returns 0x00000000 (0000ms, 0657ms total)
T2E08 063:577 JLINK_ReadReg(FPS12)  returns 0x00000000 (0001ms, 0658ms total)
T2E08 063:578 JLINK_ReadReg(FPS13)  returns 0x00000000 (0000ms, 0658ms total)
T2E08 063:578 JLINK_ReadReg(FPS14)  returns 0x00000000 (0000ms, 0658ms total)
T2E08 063:578 JLINK_ReadReg(FPS15)  returns 0x00000000 (0000ms, 0658ms total)
T2E08 063:578 JLINK_ReadReg(FPS16)  returns 0x00000000 (0000ms, 0658ms total)
T2E08 063:578 JLINK_ReadReg(FPS17)  returns 0x00000000 (0000ms, 0658ms total)
T2E08 063:578 JLINK_ReadReg(FPS18)  returns 0x00000000 (0000ms, 0658ms total)
T2E08 063:578 JLINK_ReadReg(FPS19)  returns 0x00000000 (0000ms, 0658ms total)
T2E08 063:578 JLINK_ReadReg(FPS20)  returns 0x00000000 (0000ms, 0658ms total)
T2E08 063:578 JLINK_ReadReg(FPS21)  returns 0x00000000 (0000ms, 0658ms total)
T2E08 063:578 JLINK_ReadReg(FPS22)  returns 0x00000000 (0000ms, 0658ms total)
T2E08 063:578 JLINK_ReadReg(FPS23)  returns 0x00000000 (0000ms, 0658ms total)
T2E08 063:578 JLINK_ReadReg(FPS24)  returns 0x00000000 (0000ms, 0658ms total)
T2E08 063:578 JLINK_ReadReg(FPS25)  returns 0x00000000 (0000ms, 0658ms total)
T2E08 063:578 JLINK_ReadReg(FPS26)  returns 0x00000000 (0000ms, 0658ms total)
T2E08 063:578 JLINK_ReadReg(FPS27)  returns 0x00000000 (0000ms, 0658ms total)
T2E08 063:578 JLINK_ReadReg(FPS28)  returns 0x00000000 (0000ms, 0658ms total)
T2E08 063:578 JLINK_ReadReg(FPS29)  returns 0x00000000 (0000ms, 0658ms total)
T2E08 063:578 JLINK_ReadReg(FPS30)  returns 0x00000000 (0000ms, 0658ms total)
T2E08 063:578 JLINK_ReadReg(FPS31)  returns 0x00000000 (0000ms, 0658ms total)
T01A0 063:580 JLINK_ReadMemU32(0xE0001004, 0x0001 Items, ...) -- CPU_ReadMem(4 bytes @ 0xE0001004) - Data: 9E 0B 01 00  returns 0x01 (0001ms, 0659ms total)
T01A0 063:583 JLINK_ReadMem (0x0800427C, 0x003C Bytes, ...) -- CPU_ReadMem(128 bytes @ 0x08004240) -- Updating C cache (128 bytes @ 0x08004240) -- Read from C cache (60 bytes @ 0x0800427C) - Data: 00 21 0A 20 00 F0 AA FC 07 49 08 60 10 B9 07 49 ...  returns 0x00 (0001ms, 0660ms total)
T2E08 065:904 JLINK_Step() -- Read from C cache (2 bytes @ 0x08004286) -- CPU_ReadMem(4 bytes @ 0xE000ED18) -- CPU_WriteMem(4 bytes @ 0xE000ED18) -- CPU_ReadMem(4 bytes @ 0xE000ED18) -- CPU_WriteMem(4 bytes @ 0xE000ED18) -- CPU_WriteMem(4 bytes @ 0x20000190) -- Simulated  returns 0x00 (0002ms, 0662ms total)
T2E08 065:906 JLINK_ReadReg(R15 (PC))  returns 0x08004288 (0000ms, 0662ms total)
T2E08 065:906 JLINK_ReadReg(XPSR)  returns 0x21000000 (0000ms, 0662ms total)
T2E08 065:906 JLINK_Step() -- Read from C cache (2 bytes @ 0x08004288) -- Simulated  returns 0x00 (0000ms, 0662ms total)
T2E08 065:906 JLINK_ReadReg(R15 (PC))  returns 0x08004290 (0000ms, 0662ms total)
T2E08 065:906 JLINK_ReadReg(XPSR)  returns 0x21000000 (0000ms, 0662ms total)
T2E08 065:906 JLINK_ReadReg(R0)  returns 0x200001B8 (0000ms, 0662ms total)
T2E08 065:906 JLINK_ReadReg(R1)  returns 0x20000190 (0000ms, 0662ms total)
T2E08 065:906 JLINK_ReadReg(R2)  returns 0xFFFFFFFF (0000ms, 0662ms total)
T2E08 065:906 JLINK_ReadReg(R3)  returns 0x00003B90 (0000ms, 0662ms total)
T2E08 065:906 JLINK_ReadReg(R4)  returns 0x080053F8 (0000ms, 0662ms total)
T2E08 065:906 JLINK_ReadReg(R5)  returns 0x080053F8 (0000ms, 0662ms total)
T2E08 065:906 JLINK_ReadReg(R6)  returns 0x00000000 (0000ms, 0662ms total)
T2E08 065:906 JLINK_ReadReg(R7)  returns 0x00000000 (0000ms, 0662ms total)
T2E08 065:906 JLINK_ReadReg(R8)  returns 0x00000000 (0000ms, 0662ms total)
T2E08 065:906 JLINK_ReadReg(R9)  returns 0x00000000 (0000ms, 0662ms total)
T2E08 065:906 JLINK_ReadReg(R10)  returns 0x00000000 (0000ms, 0662ms total)
T2E08 065:906 JLINK_ReadReg(R11)  returns 0x00000000 (0000ms, 0662ms total)
T2E08 065:906 JLINK_ReadReg(R12)  returns 0x000C0000 (0000ms, 0662ms total)
T2E08 065:906 JLINK_ReadReg(R13 (SP))  returns 0x20005740 (0000ms, 0662ms total)
T2E08 065:906 JLINK_ReadReg(R14)  returns 0x08004E3D (0000ms, 0662ms total)
T2E08 065:906 JLINK_ReadReg(R15 (PC))  returns 0x08004290 (0000ms, 0662ms total)
T2E08 065:907 JLINK_ReadReg(XPSR)  returns 0x21000000 (0000ms, 0663ms total)
T2E08 065:907 JLINK_ReadReg(MSP)  returns 0x20005740 (0000ms, 0663ms total)
T2E08 065:907 JLINK_ReadReg(PSP)  returns 0x00000000 (0000ms, 0663ms total)
T2E08 065:907 JLINK_ReadReg(CFBP)  returns 0x00005000 (0000ms, 0663ms total)
T2E08 065:907 JLINK_ReadReg(FPSCR)  returns 0x00000000 (0000ms, 0663ms total)
T2E08 065:907 JLINK_ReadReg(FPS0)  returns 0x00000000 (0000ms, 0663ms total)
T2E08 065:907 JLINK_ReadReg(FPS1)  returns 0x00000000 (0000ms, 0663ms total)
T2E08 065:907 JLINK_ReadReg(FPS2)  returns 0x00000000 (0000ms, 0663ms total)
T2E08 065:907 JLINK_ReadReg(FPS3)  returns 0x00000000 (0000ms, 0663ms total)
T2E08 065:907 JLINK_ReadReg(FPS4)  returns 0x00000000 (0000ms, 0663ms total)
T2E08 065:907 JLINK_ReadReg(FPS5)  returns 0x00000000 (0000ms, 0663ms total)
T2E08 065:907 JLINK_ReadReg(FPS6)  returns 0x00000000 (0000ms, 0663ms total)
T2E08 065:907 JLINK_ReadReg(FPS7)  returns 0x00000000 (0000ms, 0663ms total)
T2E08 065:907 JLINK_ReadReg(FPS8)  returns 0x00000000 (0000ms, 0663ms total)
T2E08 065:907 JLINK_ReadReg(FPS9)  returns 0x00000000 (0000ms, 0663ms total)
T2E08 065:907 JLINK_ReadReg(FPS10)  returns 0x00000000 (0000ms, 0663ms total)
T2E08 065:907 JLINK_ReadReg(FPS11)  returns 0x00000000 (0000ms, 0663ms total)
T2E08 065:907 JLINK_ReadReg(FPS12)  returns 0x00000000 (0000ms, 0663ms total)
T2E08 065:907 JLINK_ReadReg(FPS13)  returns 0x00000000 (0000ms, 0663ms total)
T2E08 065:907 JLINK_ReadReg(FPS14)  returns 0x00000000 (0000ms, 0663ms total)
T2E08 065:907 JLINK_ReadReg(FPS15)  returns 0x00000000 (0000ms, 0663ms total)
T2E08 065:907 JLINK_ReadReg(FPS16)  returns 0x00000000 (0000ms, 0663ms total)
T2E08 065:907 JLINK_ReadReg(FPS17)  returns 0x00000000 (0000ms, 0663ms total)
T2E08 065:907 JLINK_ReadReg(FPS18)  returns 0x00000000 (0000ms, 0663ms total)
T2E08 065:907 JLINK_ReadReg(FPS19)  returns 0x00000000 (0000ms, 0663ms total)
T2E08 065:907 JLINK_ReadReg(FPS20)  returns 0x00000000 (0000ms, 0663ms total)
T2E08 065:907 JLINK_ReadReg(FPS21)  returns 0x00000000 (0000ms, 0663ms total)
T2E08 065:907 JLINK_ReadReg(FPS22)  returns 0x00000000 (0000ms, 0663ms total)
T2E08 065:907 JLINK_ReadReg(FPS23)  returns 0x00000000 (0000ms, 0663ms total)
T2E08 065:907 JLINK_ReadReg(FPS24)  returns 0x00000000 (0000ms, 0663ms total)
T2E08 065:907 JLINK_ReadReg(FPS25)  returns 0x00000000 (0000ms, 0663ms total)
T2E08 065:907 JLINK_ReadReg(FPS26)  returns 0x00000000 (0000ms, 0663ms total)
T2E08 065:907 JLINK_ReadReg(FPS27)  returns 0x00000000 (0000ms, 0663ms total)
T2E08 065:907 JLINK_ReadReg(FPS28)  returns 0x00000000 (0000ms, 0663ms total)
T2E08 065:907 JLINK_ReadReg(FPS29)  returns 0x00000000 (0000ms, 0663ms total)
T2E08 065:907 JLINK_ReadReg(FPS30)  returns 0x00000000 (0000ms, 0663ms total)
T2E08 065:907 JLINK_ReadReg(FPS31)  returns 0x00000000 (0000ms, 0663ms total)
T01A0 065:907 JLINK_ReadMemU32(0xE0001004, 0x0001 Items, ...) - Data: 9E 0B 01 00  returns 0x01 (0000ms, 0663ms total)
T01A0 065:910 JLINK_ReadMem (0x0800428A, 0x0002 Bytes, ...) -- Read from C cache (2 bytes @ 0x0800428A) - Data: 07 49  returns 0x00 (0000ms, 0663ms total)
T01A0 065:910 JLINK_ReadMem (0x0800428C, 0x003C Bytes, ...) -- CPU_ReadMem(64 bytes @ 0x080042C0) -- Updating C cache (64 bytes @ 0x080042C0) -- Read from C cache (60 bytes @ 0x0800428C) - Data: 00 20 08 70 FE F7 92 F9 00 F0 4D F8 FE E7 00 00 ...  returns 0x00 (0001ms, 0664ms total)
T01A0 068:241 JLINK_ReadMem (0x20000190, 0x0004 Bytes, ...) -- CPU_ReadMem(64 bytes @ 0x20000180) -- Updating C cache (64 bytes @ 0x20000180) -- Read from C cache (4 bytes @ 0x20000190) - Data: B8 01 00 20  returns 0x00 (0001ms, 0665ms total)
T01A0 085:975 JLINK_ReadMem (0x08004286, 0x0002 Bytes, ...) -- Read from C cache (2 bytes @ 0x08004286) - Data: 08 60  returns 0x00 (0000ms, 0665ms total)
T01A0 085:975 JLINK_ReadMem (0x08004288, 0x003C Bytes, ...) -- Read from C cache (60 bytes @ 0x08004288) - Data: 10 B9 07 49 00 20 08 70 FE F7 92 F9 00 F0 4D F8 ...  returns 0x00 (0000ms, 0665ms total)
T2E08 094:454 JLINK_SetBPEx(Addr = 0x08002442, Type = 0xFFFFFFF2)  returns 0x00000005 (0000ms, 0665ms total)
T2E08 094:454 JLINK_SetBPEx(Addr = 0x080004F8, Type = 0xFFFFFFF2)  returns 0x00000006 (0000ms, 0665ms total)
T2E08 094:454 JLINK_Go() -- CPU_WriteMem(4 bytes @ 0xE0002000) -- CPU_WriteMem(4 bytes @ 0xE0002000) -- CPU_ReadMem(4 bytes @ 0xE0001000) -- CPU_WriteMem(4 bytes @ 0xE000200C) -- CPU_WriteMem(4 bytes @ 0xE0001004) (0004ms, 0669ms total)
T2E08 094:558 JLINK_IsHalted()  returns TRUE (0002ms, 0671ms total)
T2E08 094:560 JLINK_Halt()  returns 0x00 (0000ms, 0669ms total)
T2E08 094:560 JLINK_IsHalted()  returns TRUE (0000ms, 0669ms total)
T2E08 094:560 JLINK_IsHalted()  returns TRUE (0000ms, 0669ms total)
T2E08 094:560 JLINK_IsHalted()  returns TRUE (0000ms, 0669ms total)
T2E08 094:560 JLINK_ReadReg(R15 (PC))  returns 0x080004F8 (0000ms, 0669ms total)
T2E08 094:560 JLINK_ReadReg(XPSR)  returns 0x61000048 (0000ms, 0669ms total)
T2E08 094:560 JLINK_ClrBPEx(BPHandle = 0x00000005)  returns 0x00 (0000ms, 0669ms total)
T2E08 094:560 JLINK_ClrBPEx(BPHandle = 0x00000006)  returns 0x00 (0000ms, 0669ms total)
T2E08 094:560 JLINK_ReadMemU32(0xE000ED30, 0x0001 Items, ...) -- CPU_ReadMem(4 bytes @ 0xE000ED30) - Data: 03 00 00 00  returns 0x01 (0000ms, 0669ms total)
